U-Boot 2016.01-00277-g57e5eca (Jan 21 2016 - 12:00:50 +0530)                        

CPU:   Freescale i.MX6DL rev1.1 996 MHz (running at 792 MHz)
CPU:   Commercial temperature grade (0C to 95C) at 32C
Reset cause: POR
Board: MX6-SabreSD
I2C:   ready
DRAM:  1 GiB
PMIC:  PFUZE100 ID=0x10
MMC:   FSL_SDHC: 0, FSL_SDHC: 1, FSL_SDHC: 2
PCI:   pcie phy link never came up
No panel detected: default to Hannstar-XGA
Display: Hannstar-XGA (1024x768)
In:    serial
Out:   serial
Err:   serial
Net:   FEC [PRIME]
Hit any key to stop autoboot:  0 
switch to partitions #0, OK
mmc1 is current device

MMC read: dev # 1, block # 2048, count 8192 ... 8192 blocks read: OK
## Booting kernel from Legacy Image at 12000000 ...
   Image Name:   Linux-3.0.35-g894d612-dirty
   Image Type:   ARM Linux Kernel Image (uncompressed)
   Data Size:    3875072 Bytes = 3.7 MiB
   Load Address: 10008000
   Entry Point:  10008000
   Verifying Checksum ... OK
   Loading Kernel Image ... OK

Starting kernel ...

Uncompressing Linux... done, booting the kernel.
Linux version 3.0.35-g894d612-dirty (manoj@manoj) (gcc version 4.6.2 20110630 (prerelease) (Freescale MAD -- Linaro 2011.07 -- Built at 2011/06
CPU: ARMv7 Processor [412fc09a] revision 10 (ARMv7), cr=10c53c7d
CPU: VIPT nonaliasing data cache, VIPT aliasing instruction cache
Machine: Freescale i.MX 6Quad/DualLite/Solo Sabre-SD Board
Memory policy: ECC disabled, Data cache writealloc
CPU identified as i.MX6DL/SOLO, silicon rev 1.1
PERCPU: Embedded 7 pages/cpu @8c008000 s5440 r8192 d15040 u32768
Built 1 zonelists in Zone order, mobility grouping on.  Total pages: 227328
Kernel command line: console=ttymxc0,115200 root=/dev/mmcblk1p1 rootwait
PID hash table entries: 4096 (order: 2, 16384 bytes)
Dentry cache hash table entries: 131072 (order: 7, 524288 bytes)
Inode-cache hash table entries: 65536 (order: 6, 262144 bytes)
Memory: 640MB 256MB = 896MB total
Memory: 896876k/896876k available, 151700k reserved, 0K highmem
Virtual kernel memory layout:
    vector  : 0xffff0000 - 0xffff1000   (   4 kB)
    fixmap  : 0xfff00000 - 0xfffe0000   ( 896 kB)
    DMA     : 0xf4600000 - 0xffe00000   ( 184 MB)
    vmalloc : 0xc0800000 - 0xf2000000   ( 792 MB)
    lowmem  : 0x80000000 - 0xc0000000   (1024 MB)
    pkmap   : 0x7fe00000 - 0x80000000   (   2 MB)
    modules : 0x7f000000 - 0x7fe00000   (  14 MB)
      .init : 0x80008000 - 0x8003c000   ( 208 kB)
      .text : 0x8003c000 - 0x80a94a50   (10595 kB)
      .data : 0x80a96000 - 0x80af9d20   ( 400 kB)
       .bss : 0x80af9d44 - 0x80b47d0c   ( 312 kB)
SLUB: Genslabs=13, HWalign=32, Order=0-3, MinObjects=0, CPUs=2, Nodes=1
Preemptible hierarchical RCU implementation.
NR_IRQS:624
MXC GPIO hardware
sched_clock: 32 bits at 3000kHz, resolution 333ns, wraps every 1431655ms
Set periph_clk's parent to pll2_pfd_400M!
arm_max_freq=2
MXC_Early serial console at MMIO 0x2020000 (options '115200')
bootconsole [ttymxc0] enabled
Console: colour dummy device 80x30
Calibrating delay loop... 1581.05 BogoMIPS (lpj=7905280)
pid_max: default: 32768 minimum: 301
Mount-cache hash table entries: 512
CPU: Testing write buffer coherency: ok
hw perfevents: enabled with ARMv7 Cortex-A9 PMU driver, 7 counters available
CPU1: Booted secondary processor
Brought up 2 CPUs
SMP: Total of 2 processors activated (3162.11 BogoMIPS).
print_constraints: dummy: 
NET: Registered protocol family 16
print_constraints: vddpu: 725 <--> 1300 mV at 1150 mV fast normal 
print_constraints: vddcore: 725 <--> 1300 mV at 1150 mV fast normal 
print_constraints: vddsoc: 725 <--> 1300 mV at 1175 mV fast normal 
print_constraints: vdd2p5: 2000 <--> 2775 mV at 2400 mV fast normal 
print_constraints: vdd1p1: 800 <--> 1400 mV at 1100 mV fast normal 
print_constraints: vdd3p0: 2625 <--> 3400 mV at 3000 mV fast normal 
imx_add_mxc_pwm:pdata=  (null)
imx_add_mxc_pwm:pdata=  (null)
imx_add_mxc_pwm:pdata=  (null)
imx_add_mxc_pwm:pdata=  (null)
hw-breakpoint: found 6 breakpoint and 1 watchpoint registers.
hw-breakpoint: 1 breakpoint(s) reserved for watchpoint single-step.
hw-breakpoint: maximum watchpoint size is 4 bytes.
L310 cache controller enabled
l2x0: 16 ways, CACHE_ID 0x410000c8, AUX_CTRL 0x32450000, Cache size: 524288 B
bio: create slab <bio-0> at 0
mxs-dma mxs-dma-apbh: initialized
print_constraints: SPKVDD: 4200 mV 
print_constraints: vmmc: 3300 mV 
SCSI subsystem initialized
spi_imx imx6q-ecspi.0: probed
usbcore: registered new interface driver usbfs
usbcore: registered new interface driver hub
usbcore: registered new device driver usb
Freescale USB OTG Driver loaded, $Revision: 1.55 $
mc_pfuze 1-0008: ID: 0,Full lay: 1 ,Metal lay: 1
mc_pfuze 1-0008: FAB: 0 ,FIN: 0
print_constraints: PFUZE100_SW1A: 300 <--> 1875 mV at 1300 mV 
print_constraints: PFUZE100_SW1B: 300 <--> 1875 mV at 300 mV 
print_constraints: PFUZE100_SW1C: 300 <--> 1875 mV at 1300 mV 
print_constraints: PFUZE100_SW2: 800 <--> 3950 mV at 3300 mV 
print_constraints: PFUZE100_SW3A: 400 <--> 1975 mV at 1500 mV 
print_constraints: PFUZE100_SW3B: 400 <--> 1975 mV at 1500 mV 
print_constraints: PFUZE100_SW4: 800 <--> 3950 mV at 3150 mV 
print_constraints: PFUZE100_SWBST: 5000 <--> 5150 mV at 5000 mV 
print_constraints: PFUZE100_VSNVS: 1200 <--> 3000 mV at 1800 mV 
print_constraints: PFUZE100_VREFDDR: at 750 mV 
print_constraints: PFUZE100_VGEN1: 800 <--> 1550 mV at 1500 mV 
print_constraints: PFUZE100_VGEN2: 800 <--> 1550 mV at 1500 mV 
print_constraints: PFUZE100_VGEN3: 1800 <--> 3300 mV at 2800 mV 
print_constraints: PFUZE100_VGEN4: 1800 <--> 3300 mV at 1800 mV 
print_constraints: PFUZE100_VGEN5: 1800 <--> 3300 mV at 3000 mV 
print_constraints: PFUZE100_VGEN6: 1800 <--> 3300 mV at 3300 mV 
imx-ipuv3 imx-ipuv3.0: IPU DMFC NORMAL mode: 1(0~1), 5B(4,5), 5F(6,7)
mxc_mipi_csi2 mxc_mipi_csi2: i.MX MIPI CSI2 driver probed
mxc_mipi_csi2 mxc_mipi_csi2: i.MX MIPI CSI2 dphy version is 0x3130302a
MIPI CSI2 driver module loaded
Advanced Linux Sound Architecture Driver Version 1.0.24.
Bluetooth: Core ver 2.16
NET: Registered protocol family 31
Bluetooth: HCI device and connection manager initialized
Bluetooth: HCI socket layer initialized
Bluetooth: L2CAP socket layer initialized
Bluetooth: SCO socket layer initialized
cfg80211: Calling CRDA to update world regulatory domain
max17135 2-0048: PMIC MAX17135 for eInk display
i2c-core: driver [max17135] using legacy suspend method
i2c-core: driver [max17135] using legacy resume method
Switching to clocksource mxc_timer1
NET: Registered protocol family 2
IP route cache hash table entries: 32768 (order: 5, 131072 bytes)
TCP established hash table entries: 131072 (order: 8, 1048576 bytes)
TCP bind hash table entries: 65536 (order: 7, 786432 bytes)
TCP: Hash tables configured (established 131072 bind 65536)
TCP reno registered
UDP hash table entries: 512 (order: 2, 16384 bytes)
UDP-Lite hash table entries: 512 (order: 2, 16384 bytes)
NET: Registered protocol family 1
RPC: Registered named UNIX socket transport module.
RPC: Registered udp transport module.
RPC: Registered tcp transport module.
RPC: Registered tcp NFSv4.1 backchannel transport module.
PMU: registered new PMU device of type 0
Static Power Management for Freescale i.MX6
wait mode is enabled for i.MX6
cpaddr = c0820000 suspend_iram_base=c08bc000
PM driver module loaded
IMX usb wakeup probe
add wake up source irq 75
IMX usb wakeup probe
cpu regulator init ldo=1
_regulator_get: get() with no identifier
mx6_cpu_regulator_init: failed to get pu regulator
i.MXC CPU frequency driver
JFFS2 version 2.2. (NAND) �© 2001-2006 Red Hat, Inc.
msgmni has been set to 1751
alg: No test for stdrng (krng)
io scheduler noop registered
io scheduler deadline registered
io scheduler cfq registered (default)
pwm_config: pwm freq = 20000, clk_select=2 clock_rate=16500000
mxc_mipi_dsi mxc_mipi_dsi: i.MX MIPI DSI driver probed
MIPI DSI driver module loaded
mxc_sdc_fb mxc_sdc_fb.0: register mxc display driver ldb
_regulator_get: get() with no identifier
ldb_disp_init: ret=1, 1024x768
ldb_disp_init: 1280x800
ipu_init_channel ZS5:17
ipu_init_channel ZS5:18 -- 157285631 
ipu_init_sync_panel: disp=0, pixel_clk=64998000 64653061
imx-ipuv3 imx-ipuv3.0: IPU DMFC DP HIGH RESOLUTION: 1(0,1), 5B(2~5), 5F(6,7)
pwm_config: pwm freq = 20000, clk_select=2 clock_rate=16500000
ipu_init_channel ZS5:17
ipu_init_channel ZS5:18 -- 157285631 
ipu_init_sync_panel: disp=0, pixel_clk=64998000 64653061
Console: switching to colour frame buffer device 128x48
mxc_sdc_fb mxc_sdc_fb.1: register mxc display driver ldb
ldb_disp_init: ret=1, 1024x768
ldb_disp_init: 1280x800
ipu_init_channel ZS5:17
ipu_init_channel ZS5:18 -- 125042687 
ipu_init_sync_panel: disp=1, pixel_clk=64998000 64653061
pwm_config: pwm freq = 20000, clk_select=2 clock_rate=16500000
imx-sdma imx-sdma: loaded firmware 1.1
imx-sdma imx-sdma: initialized
Serial: IMX driver
imx-uart.2: ttymxc2 at MMIO 0x21ec000 (irq = 60) is a IMX
imx-uart.0: ttymxc0 at MMIO 0x2020000 (irq = 58) is a IMX
old_ufcr=a81 new_ufcr=b01, old_ucr2=4027 new_ucr2=4027, old_ubir=f num=1f7, old_ubmr=15b denom=c34
clk=80000000 div=7 num=504 denom=3125 baud=115200
console [ttymxc0] enabled, bootconsole disabled
console [ttymxc0] enabled, bootconsole disabled
loop: module loaded
m25p80 spi0.0: found m25p32, expected sst25vf016b
m25p80 spi0.0: m25p32 (4096 Kbytes)
Creating 2 MTD partitions on "m25p80":
0x000000000000-0x000000100000 : "bootloader"
0x000000100000-0x000000400000 : "kernel"
GPMI NAND driver registered. (IMX)
vcan: Virtual CAN interface driver
CAN device driver interface
flexcan netdevice driver
FEC Ethernet Driver
fec_enet_mii_bus: probed
ehci_hcd: USB 2.0 'Enhanced' Host Controller (EHCI) Driver
fsl-ehci fsl-ehci.0: Freescale On-Chip EHCI Host Controller
fsl-ehci fsl-ehci.0: new USB bus registered, assigned bus number 1
fsl-ehci fsl-ehci.0: irq 75, io base 0x02184000
fsl-ehci fsl-ehci.0: USB 2.0 started, EHCI 1.00
hub 1-0:1.0: USB hub found
hub 1-0:1.0: 1 port detected
add wake up source irq 72
fsl-ehci fsl-ehci.1: Freescale On-Chip EHCI Host Controller
fsl-ehci fsl-ehci.1: new USB bus registered, assigned bus number 2
fsl-ehci fsl-ehci.1: irq 72, io base 0x02184200
fsl-ehci fsl-ehci.1: USB 2.0 started, EHCI 1.00
hub 2-0:1.0: USB hub found
hub 2-0:1.0: 1 port detected
Initializing USB Mass Storage driver...
usbcore: registered new interface driver usb-storage
USB Mass Storage support registered.
ARC USBOTG Device Controller driver (1 August 2005)
g_ether gadget: using random self ethernet address
g_ether gadget: using random host ethernet address
usb0: MAC 92:02:d2:bf:2f:09
usb0: HOST MAC c6:3b:c5:94:7b:75
g_ether gadget: controller 'fsl-usb2-udc' not recognized; trying CDC Ethernet (ECM)
g_ether gadget: Ethernet Gadget, version: Memorial Day 2008
g_ether gadget: g_ether ready
Suspend udc for OTG auto detect
fsl-usb2-udc: bind to driver g_ether 
mousedev: PS/2 mouse device common for all mice
input: gpio-keys as /devices/platform/gpio-keys/input/input0
input: max11801_ts as /devices/platform/imx-i2c.1/i2c-1/1-0048/input/input1
egalax_ts 1-0004: egalax_ts: failed to read firmware version
egalax_ts: probe of 1-0004 failed with error -5
input: eGalax Touch Screen as /devices/platform/imx-i2c.2/i2c-2/2-0004/input/input2
elan - Read Hello Packet Failed
elan-touch: probe of 2-0010 failed with error -22
input: isl29023 light sensor as /devices/virtual/input/input3
isl29023 2-0044: driver version 1.0 enabled
i2c-core: driver [isl29023] using legacy suspend method
i2c-core: driver [isl29023] using legacy resume method
check_alarm_past: alarm in the past
snvs_rtc snvs_rtc.0: rtc core: registered snvs_rtc as rtc0
i2c /dev entries driver
Linux video capture interface: v2.00
mxc_v4l2_output mxc_v4l2_output.0: V4L2 device registered as video16
mxc_v4l2_output mxc_v4l2_output.0: V4L2 device registered as video17
mxc_v4l2_output mxc_v4l2_output.0: V4L2 device registered as video18
mag3110 2-000e: check mag3110 chip ID
input: mag3110 as /devices/virtual/input/input4
mag3110 2-000e: mag3110 is probed
i2c-core: driver [mag3110] using legacy suspend method
i2c-core: driver [mag3110] using legacy resume method
input: mma845x as /devices/virtual/input/input5
imx2-wdt imx2-wdt.0: IMX2+ Watchdog Timer enabled. timeout=60s (nowayout=1)
Bluetooth: Virtual HCI driver ver 1.3
Bluetooth: HCI UART driver ver 2.2
Bluetooth: HCIATH3K protocol initialized
Bluetooth: Generic Bluetooth USB driver ver 0.6
usbcore: registered new interface driver btusb
sdhci: Secure Digital Host Controller Interface driver
sdhci: Copyright(c) Pierre Ossman
mmc0: SDHCI controller on platform [sdhci-esdhc-imx.3] using ADMA
mmc1: SDHCI controller on platform [sdhci-esdhc-imx.1] using ADMA
mmc2: SDHCI controller on platform [sdhci-esdhc-imx.2] using ADMA
mxc_vdoa mxc_vdoa: i.MX Video Data Order Adapter(VDOA) driver probed
VPU initialized
mxc_asrc registered
anatop_thermal anatop_thermal.0: fuse data: 0x5d554d5f
Thermal calibration data is 0x5d554d5f
anatop_thermal_counting_ratio: raw25c=1493 raw_hot=1357 hot_temp=95 cvt_to_raw=8344507889
Anatop Thermal registered as thermal_zone0
anatop_thermal_probe: default cooling device is cpufreq!
usbcore: registered new interface driver usbhid
usbhid: USB HID core driver
usbcore: registered new interface driver snd-usb-audio
mxc_hdmi_soc mxc_hdmi_soc.0: MXC HDMI Audio
Cirrus Logic CS42888 ALSA SoC Codec Driver
i2c-core: driver [cs42888] using legacy suspend method
i2c-core: driver [cs42888] using legacy resume method
imx-hdmi-soc-dai: probe of imx-hdmi-soc-dai.0 failed with error -12
mmc0: new high speed DDR MMC card at address 0001
mmcblk0: mmc0:0001 SEM08G 7.39 GiB 
mmcblk0boot0: mmc0:0001 SEM08G partition 1 1.00 MiB
mmcblk0boot1: mmc0:0001 SEM08G partition 2 1.00 MiB
wm8962 0-001a: customer id 0 revision D
 mmcblk0: unknown partition table
 mmcblk0boot1: unknown partition table
 mmcblk0boot0: unknown partition table
input: WM8962 Beep Generator as /devices/platform/imx-i2c.0/i2c-0/0-001a/input/input6
asoc: wm8962 <-> imx-ssi.1 mapping ok
imx_3stack asoc driver
ALSA device list:
  #0: wm8962-audio
NET: Registered protocol family 26
TCP cubic registered
NET: Registered protocol family 17
can: controller area network core (rev 20090105 abi 8)
NET: Registered protocol family 29
can: raw protocol (rev 20090105)
can: broadcast manager protocol (rev 20090105 t)
Bluetooth: RFCOMM TTY layer initialized
Bluetooth: RFCOMM socket layer initialized
Bluetooth: RFCOMM ver 1.11
Bluetooth: BNEP (Ethernet Emulation) ver 1.3
Bluetooth: BNEP filters: protocol multicast
Bluetooth: HIDP (Human Interface Emulation) ver 1.2
lib80211: common routines for IEEE802.11 drivers
VFP support v0.3: implementor 41 architecture 3 part 30 variant 9 rev 4
Bus freq driver module loaded
Bus freq driver Enabled
mxc_dvfs_core_probe
DVFS driver module loaded
regulator_init_complete: PFUZE100_VGEN6: incomplete constraints, leaving on
regulator_init_complete: PFUZE100_VGEN3: incomplete constraints, leaving on
regulator_init_complete: PFUZE100_VGEN2: incomplete constraints, leaving on
regulator_init_complete: PFUZE100_VGEN1: incomplete constraints, leaving on
snvs_rtc snvs_rtc.0: setting system clock to 1970-01-01 00:00:00 UTC (0)
Waiting for root device /dev/mmcblk1p1...
mmc2: new high speed SD card at address 0002
mmcblk1: mmc2:0002 00000 974 MiB 
 mmcblk1: p1
EXT3-fs (mmcblk1p1): error: couldn't mount because of unsupported optional features (240)
EXT2-fs (mmcblk1p1): error: couldn't mount because of unsupported optional features (240)

EXT4-fs (mmcblk1p1): mounted filesystem with ordered data mode. Opts: (null)
VFS: Mounted root (ext4 filesystem) on device 179:25.
Freeing init memory: 208K
starting pid 1444, tty '': '/etc/rc.d/rcS'
Mounting /proc and /sys 
Starting the hotplug events dispatcher udevd
udevd (1453): /proc/1453/oom_adj is deprecated, please use /proc/1453/oom_score_adj instead.
Synthesizing initial hotplug events
Setting the hostname to freescale
Mounting filesystems
EXT4-fs (mmcblk1p1): re-mounted. Opts: (null)
mount: mounting usbfs on /proc/bus/usb failed: No such file or directory
Starting the dropbear ssh server: 
D-Bus per-session daemon address is: unix:abstract=/tmp/dbus-NioiBzsICz,guid=4c624bb3cf9e23a541715fbd00000019
gtk: creating gdk-pixbuf.loaders
pango: creating module list
starting pid 2728, tty '': '/etc/rc.d/rc_gpu.S'
/etc/rc.d/rc_gpu.S: line 6: /sys/module/galcore/parameters/gpu3DMinClock: No such file or directory
starting pid 2736, tty '': '/etc/rc.d/rc_mxc.S'
_XSERVTransSocketOpenCOTSServer: Unable to open socket for inet6
_XSERVTransOpen: transport open failed for inet6/freescale:0
_XSERVTransMakeAllCOTSServerListeners: failed to open listener for inet6
ipu_init_channel ZS5:17
ipu_init_channel ZS5:18 -- 157285631 
ipu_init_sync_panel: disp=0, pixel_clk=64998000 64653061

arm-none-linux-gnueabi-gcc (Freescale MAD -- Linaro 2011.07 -- Built at 2011/08/10 09:20) 4.6.2 20110630 (prerelease)
root filesystem built on Fri, 16 Aug 2013 20:23:44 +0800
Freescale Semiconductor, Inc.

freescale login: (EE) XKB: Couldn't open rules file /usr/share/X11/xkb/rules/base
(EE) XKB: No components provided for device Virtual core keyboard
unrecognised device identifier!
(EE) config/hal: NewInputDeviceRequest failed (2)
matchbox: keyboard does not appear to have a <alt> key.
matchbox: ignoring key shortcut <Alt>n=next

matchbox: keyboard does not appear to have a <alt> key.
matchbox: ignoring key shortcut <Alt>p=prev

matchbox: keyboard does not appear to have a <alt> key.
matchbox: ignoring key shortcut <Alt>c=close

matchbox: keyboard does not appear to have a <alt> key.
matchbox: ignoring key shortcut <Alt>d=desktop

matchbox: keyboard does not appear to have a <alt> key.
matchbox: ignoring key shortcut <Alt>m=!matchbox-remote -mbmenu

matchbox: keyboard does not appear to have a <alt> key.
matchbox: ignoring key shortcut <ctrl><alt>x=!xterm

matchbox: keyboard does not appear to have a <alt> key.
matchbox: ignoring key shortcut <ctrl><alt>r=!rxvt

matchbox: keyboard does not appear to have a <alt> key.
matchbox: ignoring key shortcut <ctrl><alt>e=!!gpe-calender

matchbox: keyboard does not appear to have a <alt> key.
matchbox: ignoring key shortcut <alt>Tab=next

matchbox: keyboard does not appear to have a <alt> key.
matchbox: ignoring key shortcut <alt><shift>Tab=prev

matchbox: keyboard does not appear to have a <alt> key.
matchbox: ignoring key shortcut <alt>space=taskmenu

matchbox: keyboard does not appear to have a <alt> key.
matchbox: ignoring key shortcut <alt>escape=!matchbox-remote -mbmenu

matchbox: keyboard does not appear to have a <alt> key.
matchbox: ignoring key shortcut <alt>f4=close

matchbox: Cant find a keycode for keysym 65480
matchbox: ignoring key shortcut f11=fullscreen

Failed to get root pixmap id
matchbox-desktop: loading /usr/lib/matchbox/desktop/tasks.so with args ( None )
matchbox-desktop: loading /usr/lib/matchbox/desktop/dotdesktop.so with args ( None )
mb-applet-menu-launcher: bonobo-browser.desktop has no icon, png or name
user_overides is (nil)
mb-applet-menu-launcher: failed to open /usr/local/share/applications
mb-applet-menu-launcher: failed to open //.applications
mb-desktop-dotdesktop: failed to open /usr/local/share/applications
mb-desktop-dotdesktop: failed to open //.applications
mb-applet-menu-launcher: bonobo-browser.desktop has no icon, png or name
mb-applet-menu-launcher: failed to open /usr/local/share/applications
mb-applet-menu-launcher: failed to open //.applications

arm-none-linux-gnueabi-gcc (Freescale MAD -- Linaro 2011.07 -- Built at 2011/08/10 09:20) 4.6.2 20110630 (prerelease)
root filesystem built on Fri, 16 Aug 2013 20:23:44 +0800
Freescale Semiconductor, Inc.

freescale login: root
login[2738]: root login on 'ttymxc0'


BusyBox v1.20.2 () built-in shell (ash)
Enter 'help' for a list of built-in commands.

root@freescale ~$ cd /
root@freescale /$ 
root@freescale /$ 
root@freescale /$ 
root@freescale /$ 
root@freescale /$ 
root@freescale /$ 
root@freescale /$ 
root@freescale /$ 
root@freescale /$ cd /Zumi/debug_ov22/
root@freescale /Zumi/debug_ov22$ 
root@freescale /Zumi/debug_ov22$ 
root@freescale /Zumi/debug_ov22$ 
root@freescale /Zumi/debug_ov22$ 
root@freescale /Zumi/debug_ov22$ insmod camera_sensor_clock.ko 
insroot@freescale /Zumi/debug_ov22$ insmod ipu_bg_overlay_sdc.ko 
insmroot@freescale /Zumi/debug_ov22$ insmod ipu_fg_overlay_sdc.ko 
insmoroot@freescale /Zumi/debug_ov22$ insmod ipu_csi_enc.ko 
insmroot@freescale /Zumi/debug_ov22$ insmod ipu_prp_enc.ko 
insmoroot@freescale /Zumi/debug_ov22$ insmod ipu_still.ko 
insmroot@freescale /Zumi/debug_ov22$ insmod mxc_v4l2_capture.ko 
insmodroot@freescale /Zumi/debug_ov22$ insmod ov2281_camera_mipi.ko
ZUMI****************OV2281 Camera Sensor *************
ZS4:ov2281_read_reg:writE reg=300a
ZS5:ov2281_read_reg:Read reg=300a,val=0
ZS1: 0
ZS4:ov2281_read_reg:writE reg=300b
ZS5:ov2281_read_reg:Read reg=300b,val=56
ZS2: 56
ZS4:ov2281_read_reg:writE reg=300c
ZS5:ov2281_read_reg:Read reg=300c,val=70
ZS3: 70
root@freescale /Zumi/debug_ov22$ 
root@freescale /Zumi/debug_ov22$ 
root@freescale /Zumi/debug_ov22$ 
root@freescale /Zumi/debug_ov22$ cd ../../unit_tests/
root@freescale /unit_tests$ 
root@freescale /unit_tests$ 
root@freescale /unit_tests$ ./mxc_v4l2_capture.out -d /dev/video1 -iw 1920 -ih 1
080 -ow 1920 -oh 1080 -r 0 -fr 30 test2.yuv
in_width = 1920, in_height = 1080mxc_v4l_open ZS5:4

out_width = 1920, out_height = mxc_v4l_open ZS5:5 0 
1080
top = 0, left = 0
ZS1:RAW
mipi_csi2_set_datatype ZS2:43
ZS3:ov2281_write_reg:write reg=103,val=1
ZS3:ov2281_write_reg:write reg=100,val=0
ZS3:ov2281_write_reg:write reg=300,val=4
ZS3:ov2281_write_reg:write reg=301,val=0
ZS3:ov2281_write_reg:write reg=302,val=69
ZS3:ov2281_write_reg:write reg=303,val=0
ZS3:ov2281_write_reg:write reg=304,val=3
ZS3:ov2281_write_reg:write reg=305,val=1
ZS3:ov2281_write_reg:write reg=306,val=1
ZS3:ov2281_write_reg:write reg=30a,val=0
ZS3:ov2281_write_reg:write reg=30b,val=0
ZS3:ov2281_write_reg:write reg=30c,val=0
ZS3:ov2281_write_reg:write reg=30d,val=1e
ZS3:ov2281_write_reg:write reg=30e,val=0
ZS3:ov2281_write_reg:write reg=30f,val=6
ZS3:ov2281_write_reg:write reg=312,val=1
ZS3:ov2281_write_reg:write reg=3000,val=0
ZS3:ov2281_write_reg:write reg=3002,val=21
ZS3:ov2281_write_reg:write reg=3005,val=f0
ZS3:ov2281_write_reg:write reg=3007,val=0
ZS3:ov2281_write_reg:write reg=3015,val=f
ZS3:ov2281_write_reg:write reg=3018,val=32
ZS3:ov2281_write_reg:write reg=301a,val=f0
ZS3:ov2281_write_reg:write reg=301b,val=f0
ZS3:ov2281_write_reg:write reg=301c,val=f0
ZS3:ov2281_write_reg:write reg=301d,val=f0
ZS3:ov2281_write_reg:write reg=301e,val=f0
ZS3:ov2281_write_reg:write reg=3030,val=0
ZS3:ov2281_write_reg:write reg=3031,val=a
ZS3:ov2281_write_reg:write reg=303c,val=ff
ZS3:ov2281_write_reg:write reg=303e,val=ff
ZS3:ov2281_write_reg:write reg=3040,val=f0
ZS3:ov2281_write_reg:write reg=3041,val=0
ZS3:ov2281_write_reg:write reg=3042,val=f0
ZS3:ov2281_write_reg:write reg=3106,val=11
ZS3:ov2281_write_reg:write reg=3500,val=0
ZS3:ov2281_write_reg:write reg=3501,val=7b
ZS3:ov2281_write_reg:write reg=3502,val=0
ZS3:ov2281_write_reg:write reg=3503,val=4
ZS3:ov2281_write_reg:write reg=3504,val=3
ZS3:ov2281_write_reg:write reg=3505,val=83
ZS3:ov2281_write_reg:write reg=3508,val=4
ZS3:ov2281_write_reg:write reg=3509,val=0
ZS3:ov2281_write_reg:write reg=350e,val=4
ZS3:ov2281_write_reg:write reg=350f,val=0
ZS3:ov2281_write_reg:write reg=3510,val=0
ZS3:ov2281_write_reg:write reg=3511,val=2
ZS3:ov2281_write_reg:write reg=3512,val=0
ZS3:ov2281_write_reg:write reg=3601,val=c8
ZS3:ov2281_write_reg:write reg=3610,val=88
ZS3:ov2281_write_reg:write reg=3612,val=48
ZS3:ov2281_write_reg:write reg=3614,val=5b
ZS3:ov2281_write_reg:write reg=3615,val=96
ZS3:ov2281_write_reg:write reg=3621,val=d0
ZS3:ov2281_write_reg:write reg=3622,val=0
ZS3:ov2281_write_reg:write reg=3623,val=0
ZS3:ov2281_write_reg:write reg=3633,val=13
ZS3:ov2281_write_reg:write reg=3634,val=13
ZS3:ov2281_write_reg:write reg=3635,val=13
ZS3:ov2281_write_reg:write reg=3636,val=13
ZS3:ov2281_write_reg:write reg=3645,val=13
ZS3:ov2281_write_reg:write reg=3646,val=82
ZS3:ov2281_write_reg:write reg=3650,val=0
ZS3:ov2281_write_reg:write reg=3652,val=ff
ZS3:ov2281_write_reg:write reg=3655,val=20
ZS3:ov2281_write_reg:write reg=3656,val=ff
ZS3:ov2281_write_reg:write reg=365a,val=ff
ZS3:ov2281_write_reg:write reg=365e,val=ff
ZS3:ov2281_write_reg:write reg=3668,val=0
ZS3:ov2281_write_reg:write reg=366a,val=7
ZS3:ov2281_write_reg:write reg=366e,val=10
ZS3:ov2281_write_reg:write reg=366d,val=0
ZS3:ov2281_write_reg:write reg=366f,val=80
ZS3:ov2281_write_reg:write reg=3700,val=28
ZS3:ov2281_write_reg:write reg=3701,val=10
ZS3:ov2281_write_reg:write reg=3702,val=3a
ZS3:ov2281_write_reg:write reg=3703,val=19
ZS3:ov2281_write_reg:write reg=3704,val=10
ZS3:ov2281_write_reg:write reg=3705,val=0
ZS3:ov2281_write_reg:write reg=3706,val=66
ZS3:ov2281_write_reg:write reg=3707,val=8
ZS3:ov2281_write_reg:write reg=3708,val=34
ZS3:ov2281_write_reg:write reg=3709,val=40
ZS3:ov2281_write_reg:write reg=370a,val=1
ZS3:ov2281_write_reg:write reg=370b,val=1b
ZS3:ov2281_write_reg:write reg=3714,val=24
ZS3:ov2281_write_reg:write reg=371a,val=3e
ZS3:ov2281_write_reg:write reg=3733,val=0
ZS3:ov2281_write_reg:write reg=3734,val=0
ZS3:ov2281_write_reg:write reg=373a,val=5
ZS3:ov2281_write_reg:write reg=373b,val=6
ZS3:ov2281_write_reg:write reg=373c,val=a
ZS3:ov2281_write_reg:write reg=373f,val=a0
ZS3:ov2281_write_reg:write reg=3755,val=0
ZS3:ov2281_write_reg:write reg=3758,val=0
ZS3:ov2281_write_reg:write reg=375b,val=e
ZS3:ov2281_write_reg:write reg=3766,val=5f
ZS3:ov2281_write_reg:write reg=3768,val=0
ZS3:ov2281_write_reg:write reg=3769,val=22
ZS3:ov2281_write_reg:write reg=3773,val=8
ZS3:ov2281_write_reg:write reg=3774,val=1f
ZS3:ov2281_write_reg:write reg=3776,val=6
ZS3:ov2281_write_reg:write reg=37a0,val=88
ZS3:ov2281_write_reg:write reg=37a1,val=5c
ZS3:ov2281_write_reg:write reg=37a7,val=88
ZS3:ov2281_write_reg:write reg=37a8,val=70
ZS3:ov2281_write_reg:write reg=37aa,val=88
ZS3:ov2281_write_reg:write reg=37ab,val=48
ZS3:ov2281_write_reg:write reg=37b3,val=66
ZS3:ov2281_write_reg:write reg=37c2,val=4
ZS3:ov2281_write_reg:write reg=37c5,val=0
ZS3:ov2281_write_reg:write reg=37c8,val=0
ZS3:ov2281_write_reg:write reg=3800,val=0
ZS3:ov2281_write_reg:write reg=3801,val=c
ZS3:ov2281_write_reg:write reg=3802,val=0
ZS3:ov2281_write_reg:write reg=3803,val=4
ZS3:ov2281_write_reg:write reg=3804,val=a
ZS3:ov2281_write_reg:write reg=3805,val=33
ZS3:ov2281_write_reg:write reg=3806,val=7
ZS3:ov2281_write_reg:write reg=3807,val=a3
ZS3:ov2281_write_reg:write reg=3808,val=a
ZS3:ov2281_write_reg:write reg=3809,val=20
ZS3:ov2281_write_reg:write reg=380a,val=7
ZS3:ov2281_write_reg:write reg=380b,val=98
ZS3:ov2281_write_reg:write reg=380c,val=6
ZS3:ov2281_write_reg:write reg=380d,val=90
ZS3:ov2281_write_reg:write reg=380e,val=7
ZS3:ov2281_write_reg:write reg=380f,val=b8
ZS3:ov2281_write_reg:write reg=3811,val=4
ZS3:ov2281_write_reg:write reg=3813,val=2
ZS3:ov2281_write_reg:write reg=3814,val=1
ZS3:ov2281_write_reg:write reg=3815,val=1
ZS3:ov2281_write_reg:write reg=3816,val=0
ZS3:ov2281_write_reg:write reg=3817,val=0
ZS3:ov2281_write_reg:write reg=3818,val=0
ZS3:ov2281_write_reg:write reg=3819,val=0
ZS3:ov2281_write_reg:write reg=3820,val=80
ZS3:ov2281_write_reg:write reg=3821,val=46
ZS3:ov2281_write_reg:write reg=3822,val=48
ZS3:ov2281_write_reg:write reg=3826,val=0
ZS3:ov2281_write_reg:write reg=3827,val=8
ZS3:ov2281_write_reg:write reg=382a,val=1
ZS3:ov2281_write_reg:write reg=382b,val=1
ZS3:ov2281_write_reg:write reg=3830,val=8
ZS3:ov2281_write_reg:write reg=3836,val=2
ZS3:ov2281_write_reg:write reg=3837,val=0
ZS3:ov2281_write_reg:write reg=3838,val=10
ZS3:ov2281_write_reg:write reg=3841,val=ff
ZS3:ov2281_write_reg:write reg=3846,val=48
ZS3:ov2281_write_reg:write reg=3861,val=0
ZS3:ov2281_write_reg:write reg=3862,val=4
ZS3:ov2281_write_reg:write reg=3863,val=6
ZS3:ov2281_write_reg:write reg=3a11,val=1
ZS3:ov2281_write_reg:write reg=3a12,val=78
ZS3:ov2281_write_reg:write reg=3b00,val=0
ZS3:ov2281_write_reg:write reg=3b02,val=0
ZS3:ov2281_write_reg:write reg=3b03,val=0
ZS3:ov2281_write_reg:write reg=3b04,val=0
ZS3:ov2281_write_reg:write reg=3b05,val=0
ZS3:ov2281_write_reg:write reg=3c00,val=89
ZS3:ov2281_write_reg:write reg=3c01,val=ab
ZS3:ov2281_write_reg:write reg=3c02,val=1
ZS3:ov2281_write_reg:write reg=3c03,val=0
ZS3:ov2281_write_reg:write reg=3c04,val=0
ZS3:ov2281_write_reg:write reg=3c05,val=3
ZS3:ov2281_write_reg:write reg=3c06,val=0
ZS3:ov2281_write_reg:write reg=3c07,val=5
ZS3:ov2281_write_reg:write reg=3c0c,val=0
ZS3:ov2281_write_reg:write reg=3c0e,val=0
ZS3:ov2281_write_reg:write reg=3c0f,val=0
ZS3:ov2281_write_reg:write reg=3c40,val=0
ZS3:ov2281_write_reg:write reg=3c41,val=a3
ZS3:ov2281_write_reg:write reg=3c43,val=7d
ZS3:ov2281_write_reg:write reg=3c45,val=d7
ZS3:ov2281_write_reg:write reg=3c47,val=fc
ZS3:ov2281_write_reg:write reg=3c50,val=5
ZS3:ov2281_write_reg:write reg=3c52,val=aa
ZS3:ov2281_write_reg:write reg=3c54,val=71
ZS3:ov2281_write_reg:write reg=3c56,val=80
ZS3:ov2281_write_reg:write reg=3d85,val=17
ZS3:ov2281_write_reg:write reg=3f03,val=0
ZS3:ov2281_write_reg:write reg=3f0a,val=0
ZS3:ov2281_write_reg:write reg=3f0b,val=0
ZS3:ov2281_write_reg:write reg=4001,val=60
ZS3:ov2281_write_reg:write reg=4009,val=d
ZS3:ov2281_write_reg:write reg=4020,val=0
ZS3:ov2281_write_reg:write reg=4021,val=0
ZS3:ov2281_write_reg:write reg=4022,val=0
ZS3:ov2281_write_reg:write reg=4023,val=0
ZS3:ov2281_write_reg:write reg=4024,val=0
ZS3:ov2281_write_reg:write reg=4025,val=0
ZS3:ov2281_write_reg:write reg=4026,val=0
ZS3:ov2281_write_reg:write reg=4027,val=0
ZS3:ov2281_write_reg:write reg=4028,val=0
ZS3:ov2281_write_reg:write reg=4029,val=0
ZS3:ov2281_write_reg:write reg=402a,val=0
ZS3:ov2281_write_reg:write reg=402b,val=0
ZS3:ov2281_write_reg:write reg=402c,val=0
ZS3:ov2281_write_reg:write reg=402d,val=0
ZS3:ov2281_write_reg:write reg=402e,val=0
ZS3:ov2281_write_reg:write reg=402f,val=0
ZS3:ov2281_write_reg:write reg=4040,val=0
ZS3:ov2281_write_reg:write reg=4041,val=3
ZS3:ov2281_write_reg:write reg=4042,val=0
ZS3:ov2281_write_reg:write reg=4043,val=7a
ZS3:ov2281_write_reg:write reg=4044,val=0
ZS3:ov2281_write_reg:write reg=4045,val=7a
ZS3:ov2281_write_reg:write reg=4046,val=0
ZS3:ov2281_write_reg:write reg=4047,val=7a
ZS3:ov2281_write_reg:write reg=4048,val=0
ZS3:ov2281_write_reg:write reg=4049,val=7a
ZS3:ov2281_write_reg:write reg=4303,val=0
ZS3:ov2281_write_reg:write reg=4307,val=30
ZS3:ov2281_write_reg:write reg=4500,val=58
ZS3:ov2281_write_reg:write reg=4501,val=4
ZS3:ov2281_write_reg:write reg=4502,val=40
ZS3:ov2281_write_reg:write reg=4503,val=10
ZS3:ov2281_write_reg:write reg=4508,val=aa
ZS3:ov2281_write_reg:write reg=450a,val=0
ZS3:ov2281_write_reg:write reg=450b,val=0
ZS3:ov2281_write_reg:write reg=4600,val=1
ZS3:ov2281_write_reg:write reg=4601,val=3
ZS3:ov2281_write_reg:write reg=4700,val=a4
ZS3:ov2281_write_reg:write reg=4800,val=4c
ZS3:ov2281_write_reg:write reg=4816,val=53
ZS3:ov2281_write_reg:write reg=481f,val=40
ZS3:ov2281_write_reg:write reg=4837,val=13
ZS3:ov2281_write_reg:write reg=5000,val=56
ZS3:ov2281_write_reg:write reg=5001,val=1
ZS3:ov2281_write_reg:write reg=5002,val=28
ZS3:ov2281_write_reg:write reg=5004,val=c
ZS3:ov2281_write_reg:write reg=5006,val=c
ZS3:ov2281_write_reg:write reg=5007,val=e0
ZS3:ov2281_write_reg:write reg=5008,val=1
ZS3:ov2281_write_reg:write reg=5009,val=b0
ZS3:ov2281_write_reg:write reg=5901,val=0
ZS3:ov2281_write_reg:write reg=5a01,val=0
ZS3:ov2281_write_reg:write reg=5a03,val=0
ZS3:ov2281_write_reg:write reg=5a04,val=c
ZS3:ov2281_write_reg:write reg=5a05,val=e0
ZS3:ov2281_write_reg:write reg=5a06,val=9
ZS3:ov2281_write_reg:write reg=5a07,val=b0
ZS3:ov2281_write_reg:write reg=5a08,val=6
ZS3:ov2281_write_reg:write reg=5e00,val=0
ZS3:ov2281_write_reg:write reg=3734,val=40
ZS3:ov2281_write_reg:write reg=5b00,val=1
ZS3:ov2281_write_reg:write reg=5b01,val=10
ZS3:ov2281_write_reg:write reg=5b02,val=1
ZS3:ov2281_write_reg:write reg=5b03,val=db
ZS3:ov2281_write_reg:write reg=3d8c,val=71
ZS3:ov2281_write_reg:write reg=3d8d,val=ea
ZS3:ov2281_write_reg:write reg=4017,val=8
ZS3:ov2281_write_reg:write reg=3618,val=2a
ZS3:ov2281_write_reg:write reg=5780,val=3e
ZS3:ov2281_write_reg:write reg=5781,val=f
ZS3:ov2281_write_reg:write reg=5782,val=44
ZS3:ov2281_write_reg:write reg=5783,val=2
ZS3:ov2281_write_reg:write reg=5784,val=1
ZS3:ov2281_write_reg:write reg=5785,val=1
ZS3:ov2281_write_reg:write reg=5786,val=0
ZS3:ov2281_write_reg:write reg=5787,val=4
ZS3:ov2281_write_reg:write reg=5788,val=2
ZS3:ov2281_write_reg:write reg=5789,val=f
ZS3:ov2281_write_reg:write reg=578a,val=fd
ZS3:ov2281_write_reg:write reg=578b,val=f5
ZS3:ov2281_write_reg:write reg=578c,val=f5
ZS3:ov2281_write_reg:write reg=578d,val=3
ZS3:ov2281_write_reg:write reg=578e,val=8
ZS3:ov2281_write_reg:write reg=578f,val=c
ZS3:ov2281_write_reg:write reg=5790,val=8
ZS3:ov2281_write_reg:write reg=5791,val=6
ZS3:ov2281_write_reg:write reg=5792,val=0
ZS3:ov2281_write_reg:write reg=5793,val=52
ZS3:ov2281_write_reg:write reg=5794,val=a3
ZS3:ov2281_write_reg:write reg=380e,val=7
ZS3:ov2281_write_reg:write reg=380f,val=f6
ZS3:ov2281_write_reg:write reg=3503,val=0
ZS3:ov2281_write_reg:write reg=3002,val=61
ZS3:ov2281_write_reg:write reg=3010,val=40
ZS3:ov2281_write_reg:write reg=300d,val=0
ZS3:ov2281_write_reg:write reg=5045,val=5
ZS3:ov2281_write_reg:write reg=5048,val=10
ZS3:ov2281_write_reg:write reg=3808,val=7
ZS3:ov2281_write_reg:write reg=3809,val=80
ZS3:ov2281_write_reg:write reg=380a,val=4
ZS3:ov2281_write_reg:write reg=380b,val=38
ZS3:ov2281_write_reg:write reg=4600,val=0
ZS3:ov2281_write_reg:write reg=4601,val=c0
ZS3:ov2281_write_reg:write reg=100,val=1
ZS3:ov2281_write_reg:write reg=103,val=1
ZS3:ov2281_write_reg:write reg=100,val=0
ZS3:ov2281_write_reg:write reg=300,val=4
ZS3:ov2281_write_reg:write reg=301,val=0
ZS3:ov2281_write_reg:write reg=302,val=69
ZS3:ov2281_write_reg:write reg=303,val=0
ZS3:ov2281_write_reg:write reg=304,val=3
ZS3:ov2281_write_reg:write reg=305,val=1
ZS3:ov2281_write_reg:write reg=306,val=1
ZS3:ov2281_write_reg:write reg=30a,val=0
ZS3:ov2281_write_reg:write reg=30b,val=0
ZS3:ov2281_write_reg:write reg=30c,val=0
ZS3:ov2281_write_reg:write reg=30d,val=1e
ZS3:ov2281_write_reg:write reg=30e,val=0
ZS3:ov2281_write_reg:write reg=30f,val=6
ZS3:ov2281_write_reg:write reg=312,val=1
ZS3:ov2281_write_reg:write reg=3000,val=0
ZS3:ov2281_write_reg:write reg=3002,val=21
ZS3:ov2281_write_reg:write reg=3005,val=f0
ZS3:ov2281_write_reg:write reg=3007,val=0
ZS3:ov2281_write_reg:write reg=3015,val=f
ZS3:ov2281_write_reg:write reg=3018,val=32
ZS3:ov2281_write_reg:write reg=301a,val=f0
ZS3:ov2281_write_reg:write reg=301b,val=f0
ZS3:ov2281_write_reg:write reg=301c,val=f0
ZS3:ov2281_write_reg:write reg=301d,val=f0
ZS3:ov2281_write_reg:write reg=301e,val=f0
ZS3:ov2281_write_reg:write reg=3030,val=0
ZS3:ov2281_write_reg:write reg=3031,val=a
ZS3:ov2281_write_reg:write reg=303c,val=ff
ZS3:ov2281_write_reg:write reg=303e,val=ff
ZS3:ov2281_write_reg:write reg=3040,val=f0
ZS3:ov2281_write_reg:write reg=3041,val=0
ZS3:ov2281_write_reg:write reg=3042,val=f0
ZS3:ov2281_write_reg:write reg=3106,val=11
ZS3:ov2281_write_reg:write reg=3500,val=0
ZS3:ov2281_write_reg:write reg=3501,val=7b
ZS3:ov2281_write_reg:write reg=3502,val=0
ZS3:ov2281_write_reg:write reg=3503,val=4
ZS3:ov2281_write_reg:write reg=3504,val=3
ZS3:ov2281_write_reg:write reg=3505,val=83
ZS3:ov2281_write_reg:write reg=3508,val=4
ZS3:ov2281_write_reg:write reg=3509,val=0
ZS3:ov2281_write_reg:write reg=350e,val=4
ZS3:ov2281_write_reg:write reg=350f,val=0
ZS3:ov2281_write_reg:write reg=3510,val=0
ZS3:ov2281_write_reg:write reg=3511,val=2
ZS3:ov2281_write_reg:write reg=3512,val=0
ZS3:ov2281_write_reg:write reg=3601,val=c8
ZS3:ov2281_write_reg:write reg=3610,val=88
ZS3:ov2281_write_reg:write reg=3612,val=48
ZS3:ov2281_write_reg:write reg=3614,val=5b
ZS3:ov2281_write_reg:write reg=3615,val=96
ZS3:ov2281_write_reg:write reg=3621,val=d0
ZS3:ov2281_write_reg:write reg=3622,val=0
ZS3:ov2281_write_reg:write reg=3623,val=0
ZS3:ov2281_write_reg:write reg=3633,val=13
ZS3:ov2281_write_reg:write reg=3634,val=13
ZS3:ov2281_write_reg:write reg=3635,val=13
ZS3:ov2281_write_reg:write reg=3636,val=13
ZS3:ov2281_write_reg:write reg=3645,val=13
ZS3:ov2281_write_reg:write reg=3646,val=82
ZS3:ov2281_write_reg:write reg=3650,val=0
ZS3:ov2281_write_reg:write reg=3652,val=ff
ZS3:ov2281_write_reg:write reg=3655,val=20
ZS3:ov2281_write_reg:write reg=3656,val=ff
ZS3:ov2281_write_reg:write reg=365a,val=ff
ZS3:ov2281_write_reg:write reg=365e,val=ff
ZS3:ov2281_write_reg:write reg=3668,val=0
ZS3:ov2281_write_reg:write reg=366a,val=7
ZS3:ov2281_write_reg:write reg=366e,val=10
ZS3:ov2281_write_reg:write reg=366d,val=0
ZS3:ov2281_write_reg:write reg=366f,val=80
ZS3:ov2281_write_reg:write reg=3700,val=28
ZS3:ov2281_write_reg:write reg=3701,val=10
ZS3:ov2281_write_reg:write reg=3702,val=3a
ZS3:ov2281_write_reg:write reg=3703,val=19
ZS3:ov2281_write_reg:write reg=3704,val=10
ZS3:ov2281_write_reg:write reg=3705,val=0
ZS3:ov2281_write_reg:write reg=3706,val=66
ZS3:ov2281_write_reg:write reg=3707,val=8
ZS3:ov2281_write_reg:write reg=3708,val=34
ZS3:ov2281_write_reg:write reg=3709,val=40
ZS3:ov2281_write_reg:write reg=370a,val=1
ZS3:ov2281_write_reg:write reg=370b,val=1b
ZS3:ov2281_write_reg:write reg=3714,val=24
ZS3:ov2281_write_reg:write reg=371a,val=3e
ZS3:ov2281_write_reg:write reg=3733,val=0
ZS3:ov2281_write_reg:write reg=3734,val=0
ZS3:ov2281_write_reg:write reg=373a,val=5
ZS3:ov2281_write_reg:write reg=373b,val=6
ZS3:ov2281_write_reg:write reg=373c,val=a
ZS3:ov2281_write_reg:write reg=373f,val=a0
ZS3:ov2281_write_reg:write reg=3755,val=0
ZS3:ov2281_write_reg:write reg=3758,val=0
ZS3:ov2281_write_reg:write reg=375b,val=e
ZS3:ov2281_write_reg:write reg=3766,val=5f
ZS3:ov2281_write_reg:write reg=3768,val=0
ZS3:ov2281_write_reg:write reg=3769,val=22
ZS3:ov2281_write_reg:write reg=3773,val=8
ZS3:ov2281_write_reg:write reg=3774,val=1f
ZS3:ov2281_write_reg:write reg=3776,val=6
ZS3:ov2281_write_reg:write reg=37a0,val=88
ZS3:ov2281_write_reg:write reg=37a1,val=5c
ZS3:ov2281_write_reg:write reg=37a7,val=88
ZS3:ov2281_write_reg:write reg=37a8,val=70
ZS3:ov2281_write_reg:write reg=37aa,val=88
ZS3:ov2281_write_reg:write reg=37ab,val=48
ZS3:ov2281_write_reg:write reg=37b3,val=66
ZS3:ov2281_write_reg:write reg=37c2,val=4
ZS3:ov2281_write_reg:write reg=37c5,val=0
ZS3:ov2281_write_reg:write reg=37c8,val=0
ZS3:ov2281_write_reg:write reg=3800,val=0
ZS3:ov2281_write_reg:write reg=3801,val=c
ZS3:ov2281_write_reg:write reg=3802,val=0
ZS3:ov2281_write_reg:write reg=3803,val=4
ZS3:ov2281_write_reg:write reg=3804,val=a
ZS3:ov2281_write_reg:write reg=3805,val=33
ZS3:ov2281_write_reg:write reg=3806,val=7
ZS3:ov2281_write_reg:write reg=3807,val=a3
ZS3:ov2281_write_reg:write reg=3808,val=a
ZS3:ov2281_write_reg:write reg=3809,val=20
ZS3:ov2281_write_reg:write reg=380a,val=7
ZS3:ov2281_write_reg:write reg=380b,val=98
ZS3:ov2281_write_reg:write reg=380c,val=6
ZS3:ov2281_write_reg:write reg=380d,val=90
ZS3:ov2281_write_reg:write reg=380e,val=7
ZS3:ov2281_write_reg:write reg=380f,val=b8
ZS3:ov2281_write_reg:write reg=3811,val=4
ZS3:ov2281_write_reg:write reg=3813,val=2
ZS3:ov2281_write_reg:write reg=3814,val=1
ZS3:ov2281_write_reg:write reg=3815,val=1
ZS3:ov2281_write_reg:write reg=3816,val=0
ZS3:ov2281_write_reg:write reg=3817,val=0
ZS3:ov2281_write_reg:write reg=3818,val=0
ZS3:ov2281_write_reg:write reg=3819,val=0
ZS3:ov2281_write_reg:write reg=3820,val=80
ZS3:ov2281_write_reg:write reg=3821,val=46
ZS3:ov2281_write_reg:write reg=3822,val=48
ZS3:ov2281_write_reg:write reg=3826,val=0
ZS3:ov2281_write_reg:write reg=3827,val=8
ZS3:ov2281_write_reg:write reg=382a,val=1
ZS3:ov2281_write_reg:write reg=382b,val=1
ZS3:ov2281_write_reg:write reg=3830,val=8
ZS3:ov2281_write_reg:write reg=3836,val=2
ZS3:ov2281_write_reg:write reg=3837,val=0
ZS3:ov2281_write_reg:write reg=3838,val=10
ZS3:ov2281_write_reg:write reg=3841,val=ff
ZS3:ov2281_write_reg:write reg=3846,val=48
ZS3:ov2281_write_reg:write reg=3861,val=0
ZS3:ov2281_write_reg:write reg=3862,val=4
ZS3:ov2281_write_reg:write reg=3863,val=6
ZS3:ov2281_write_reg:write reg=3a11,val=1
ZS3:ov2281_write_reg:write reg=3a12,val=78
ZS3:ov2281_write_reg:write reg=3b00,val=0
ZS3:ov2281_write_reg:write reg=3b02,val=0
ZS3:ov2281_write_reg:write reg=3b03,val=0
ZS3:ov2281_write_reg:write reg=3b04,val=0
ZS3:ov2281_write_reg:write reg=3b05,val=0
ZS3:ov2281_write_reg:write reg=3c00,val=89
ZS3:ov2281_write_reg:write reg=3c01,val=ab
ZS3:ov2281_write_reg:write reg=3c02,val=1
ZS3:ov2281_write_reg:write reg=3c03,val=0
ZS3:ov2281_write_reg:write reg=3c04,val=0
ZS3:ov2281_write_reg:write reg=3c05,val=3
ZS3:ov2281_write_reg:write reg=3c06,val=0
ZS3:ov2281_write_reg:write reg=3c07,val=5
ZS3:ov2281_write_reg:write reg=3c0c,val=0
ZS3:ov2281_write_reg:write reg=3c0e,val=0
ZS3:ov2281_write_reg:write reg=3c0f,val=0
ZS3:ov2281_write_reg:write reg=3c40,val=0
ZS3:ov2281_write_reg:write reg=3c41,val=a3
ZS3:ov2281_write_reg:write reg=3c43,val=7d
ZS3:ov2281_write_reg:write reg=3c45,val=d7
ZS3:ov2281_write_reg:write reg=3c47,val=fc
ZS3:ov2281_write_reg:write reg=3c50,val=5
ZS3:ov2281_write_reg:write reg=3c52,val=aa
ZS3:ov2281_write_reg:write reg=3c54,val=71
ZS3:ov2281_write_reg:write reg=3c56,val=80
ZS3:ov2281_write_reg:write reg=3d85,val=17
ZS3:ov2281_write_reg:write reg=3f03,val=0
ZS3:ov2281_write_reg:write reg=3f0a,val=0
ZS3:ov2281_write_reg:write reg=3f0b,val=0
ZS3:ov2281_write_reg:write reg=4001,val=60
ZS3:ov2281_write_reg:write reg=4009,val=d
ZS3:ov2281_write_reg:write reg=4020,val=0
ZS3:ov2281_write_reg:write reg=4021,val=0
ZS3:ov2281_write_reg:write reg=4022,val=0
ZS3:ov2281_write_reg:write reg=4023,val=0
ZS3:ov2281_write_reg:write reg=4024,val=0
ZS3:ov2281_write_reg:write reg=4025,val=0
ZS3:ov2281_write_reg:write reg=4026,val=0
ZS3:ov2281_write_reg:write reg=4027,val=0
ZS3:ov2281_write_reg:write reg=4028,val=0
ZS3:ov2281_write_reg:write reg=4029,val=0
ZS3:ov2281_write_reg:write reg=402a,val=0
ZS3:ov2281_write_reg:write reg=402b,val=0
ZS3:ov2281_write_reg:write reg=402c,val=0
ZS3:ov2281_write_reg:write reg=402d,val=0
ZS3:ov2281_write_reg:write reg=402e,val=0
ZS3:ov2281_write_reg:write reg=402f,val=0
ZS3:ov2281_write_reg:write reg=4040,val=0
ZS3:ov2281_write_reg:write reg=4041,val=3
ZS3:ov2281_write_reg:write reg=4042,val=0
ZS3:ov2281_write_reg:write reg=4043,val=7a
ZS3:ov2281_write_reg:write reg=4044,val=0
ZS3:ov2281_write_reg:write reg=4045,val=7a
ZS3:ov2281_write_reg:write reg=4046,val=0
ZS3:ov2281_write_reg:write reg=4047,val=7a
ZS3:ov2281_write_reg:write reg=4048,val=0
ZS3:ov2281_write_reg:write reg=4049,val=7a
ZS3:ov2281_write_reg:write reg=4303,val=0
ZS3:ov2281_write_reg:write reg=4307,val=30
ZS3:ov2281_write_reg:write reg=4500,val=58
ZS3:ov2281_write_reg:write reg=4501,val=4
ZS3:ov2281_write_reg:write reg=4502,val=40
ZS3:ov2281_write_reg:write reg=4503,val=10
ZS3:ov2281_write_reg:write reg=4508,val=aa
ZS3:ov2281_write_reg:write reg=450a,val=0
ZS3:ov2281_write_reg:write reg=450b,val=0
ZS3:ov2281_write_reg:write reg=4600,val=1
ZS3:ov2281_write_reg:write reg=4601,val=3
ZS3:ov2281_write_reg:write reg=4700,val=a4
ZS3:ov2281_write_reg:write reg=4800,val=4c
ZS3:ov2281_write_reg:write reg=4816,val=53
ZS3:ov2281_write_reg:write reg=481f,val=40
ZS3:ov2281_write_reg:write reg=4837,val=13
ZS3:ov2281_write_reg:write reg=5000,val=56
ZS3:ov2281_write_reg:write reg=5001,val=1
ZS3:ov2281_write_reg:write reg=5002,val=28
ZS3:ov2281_write_reg:write reg=5004,val=c
ZS3:ov2281_write_reg:write reg=5006,val=c
ZS3:ov2281_write_reg:write reg=5007,val=e0
ZS3:ov2281_write_reg:write reg=5008,val=1
ZS3:ov2281_write_reg:write reg=5009,val=b0
ZS3:ov2281_write_reg:write reg=5901,val=0
ZS3:ov2281_write_reg:write reg=5a01,val=0
ZS3:ov2281_write_reg:write reg=5a03,val=0
ZS3:ov2281_write_reg:write reg=5a04,val=c
ZS3:ov2281_write_reg:write reg=5a05,val=e0
ZS3:ov2281_write_reg:write reg=5a06,val=9
ZS3:ov2281_write_reg:write reg=5a07,val=b0
ZS3:ov2281_write_reg:write reg=5a08,val=6
ZS3:ov2281_write_reg:write reg=5e00,val=0
ZS3:ov2281_write_reg:write reg=3734,val=40
ZS3:ov2281_write_reg:write reg=5b00,val=1
ZS3:ov2281_write_reg:write reg=5b01,val=10
ZS3:ov2281_write_reg:write reg=5b02,val=1
ZS3:ov2281_write_reg:write reg=5b03,val=db
ZS3:ov2281_write_reg:write reg=3d8c,val=71
ZS3:ov2281_write_reg:write reg=3d8d,val=ea
ZS3:ov2281_write_reg:write reg=4017,val=8
ZS3:ov2281_write_reg:write reg=3618,val=2a
ZS3:ov2281_write_reg:write reg=5780,val=3e
ZS3:ov2281_write_reg:write reg=5781,val=f
ZS3:ov2281_write_reg:write reg=5782,val=44
ZS3:ov2281_write_reg:write reg=5783,val=2
ZS3:ov2281_write_reg:write reg=5784,val=1
ZS3:ov2281_write_reg:write reg=5785,val=1
ZS3:ov2281_write_reg:write reg=5786,val=0
ZS3:ov2281_write_reg:write reg=5787,val=4
ZS3:ov2281_write_reg:write reg=5788,val=2
ZS3:ov2281_write_reg:write reg=5789,val=f
ZS3:ov2281_write_reg:write reg=578a,val=fd
ZS3:ov2281_write_reg:write reg=578b,val=f5
ZS3:ov2281_write_reg:write reg=578c,val=f5
ZS3:ov2281_write_reg:write reg=578d,val=3
ZS3:ov2281_write_reg:write reg=578e,val=8
ZS3:ov2281_write_reg:write reg=578f,val=c
ZS3:ov2281_write_reg:write reg=5790,val=8
ZS3:ov2281_write_reg:write reg=5791,val=6
ZS3:ov2281_write_reg:write reg=5792,val=0
ZS3:ov2281_write_reg:write reg=5793,val=52
ZS3:ov2281_write_reg:write reg=5794,val=a3
ZS3:ov2281_write_reg:write reg=380e,val=7
ZS3:ov2281_write_reg:write reg=380f,val=f6
ZS3:ov2281_write_reg:write reg=3503,val=0
ZS3:ov2281_write_reg:write reg=3002,val=61
ZS3:ov2281_write_reg:write reg=3010,val=40
ZS3:ov2281_write_reg:write reg=300d,val=0
ZS3:ov2281_write_reg:write reg=5045,val=5
ZS3:ov2281_write_reg:write reg=5048,val=10
ZS3:ov2281_write_reg:write reg=3808,val=7
ZS3:ov2281_write_reg:write reg=3809,val=80
ZS3:ov2281_write_reg:write reg=380a,val=4
ZS3:ov2281_write_reg:write reg=380b,val=38
ZS3:ov2281_write_reg:write reg=4600,val=0
ZS3:ov2281_write_reg:write reg=4601,val=c0
ZS3:ov2281_write_reg:write reg=100,val=1
sensor chip is ov2281_mipi_camera
sensor supported frame size:
 1920x1080
 0x0
sensor frame format: BG10
sensor frame format: BG10
ZS1:RAW
mipi_csi2_set_datatype ZS2:43
ZS2:width:1920,hight:1080ZS3:ov2281_write_reg:write reg=103,val=1
ZS3:ov2281_write_reg:write reg=100,val=0
ZS3:ov2281_write_reg:write reg=300,val=4
ZS3:ov2281_write_reg:write reg=301,val=0
ZS3:ov2281_write_reg:write reg=302,val=69
ZS3:ov2281_write_reg:write reg=303,val=0
ZS3:ov2281_write_reg:write reg=304,val=3
ZS3:ov2281_write_reg:write reg=305,val=1
ZS3:ov2281_write_reg:write reg=306,val=1
ZS3:ov2281_write_reg:write reg=30a,val=0
ZS3:ov2281_write_reg:write reg=30b,val=0
ZS3:ov2281_write_reg:write reg=30c,val=0
ZS3:ov2281_write_reg:write reg=30d,val=1e
ZS3:ov2281_write_reg:write reg=30e,val=0
ZS3:ov2281_write_reg:write reg=30f,val=6
ZS3:ov2281_write_reg:write reg=312,val=1
ZS3:ov2281_write_reg:write reg=3000,val=0
ZS3:ov2281_write_reg:write reg=3002,val=21
ZS3:ov2281_write_reg:write reg=3005,val=f0
ZS3:ov2281_write_reg:write reg=3007,val=0
ZS3:ov2281_write_reg:write reg=3015,val=f
ZS3:ov2281_write_reg:write reg=3018,val=32
ZS3:ov2281_write_reg:write reg=301a,val=f0
ZS3:ov2281_write_reg:write reg=301b,val=f0
ZS3:ov2281_write_reg:write reg=301c,val=f0
ZS3:ov2281_write_reg:write reg=301d,val=f0
ZS3:ov2281_write_reg:write reg=301e,val=f0
ZS3:ov2281_write_reg:write reg=3030,val=0
ZS3:ov2281_write_reg:write reg=3031,val=a
ZS3:ov2281_write_reg:write reg=303c,val=ff
ZS3:ov2281_write_reg:write reg=303e,val=ff
ZS3:ov2281_write_reg:write reg=3040,val=f0
ZS3:ov2281_write_reg:write reg=3041,val=0
ZS3:ov2281_write_reg:write reg=3042,val=f0
ZS3:ov2281_write_reg:write reg=3106,val=11
ZS3:ov2281_write_reg:write reg=3500,val=0
ZS3:ov2281_write_reg:write reg=3501,val=7b
ZS3:ov2281_write_reg:write reg=3502,val=0
ZS3:ov2281_write_reg:write reg=3503,val=4
ZS3:ov2281_write_reg:write reg=3504,val=3
ZS3:ov2281_write_reg:write reg=3505,val=83
ZS3:ov2281_write_reg:write reg=3508,val=4
ZS3:ov2281_write_reg:write reg=3509,val=0
ZS3:ov2281_write_reg:write reg=350e,val=4
ZS3:ov2281_write_reg:write reg=350f,val=0
ZS3:ov2281_write_reg:write reg=3510,val=0
ZS3:ov2281_write_reg:write reg=3511,val=2
ZS3:ov2281_write_reg:write reg=3512,val=0
ZS3:ov2281_write_reg:write reg=3601,val=c8
ZS3:ov2281_write_reg:write reg=3610,val=88
ZS3:ov2281_write_reg:write reg=3612,val=48
ZS3:ov2281_write_reg:write reg=3614,val=5b
ZS3:ov2281_write_reg:write reg=3615,val=96
ZS3:ov2281_write_reg:write reg=3621,val=d0
ZS3:ov2281_write_reg:write reg=3622,val=0
ZS3:ov2281_write_reg:write reg=3623,val=0
ZS3:ov2281_write_reg:write reg=3633,val=13
ZS3:ov2281_write_reg:write reg=3634,val=13
ZS3:ov2281_write_reg:write reg=3635,val=13
ZS3:ov2281_write_reg:write reg=3636,val=13
ZS3:ov2281_write_reg:write reg=3645,val=13
ZS3:ov2281_write_reg:write reg=3646,val=82
ZS3:ov2281_write_reg:write reg=3650,val=0
ZS3:ov2281_write_reg:write reg=3652,val=ff
ZS3:ov2281_write_reg:write reg=3655,val=20
ZS3:ov2281_write_reg:write reg=3656,val=ff
ZS3:ov2281_write_reg:write reg=365a,val=ff
ZS3:ov2281_write_reg:write reg=365e,val=ff
ZS3:ov2281_write_reg:write reg=3668,val=0
ZS3:ov2281_write_reg:write reg=366a,val=7
ZS3:ov2281_write_reg:write reg=366e,val=10
ZS3:ov2281_write_reg:write reg=366d,val=0
ZS3:ov2281_write_reg:write reg=366f,val=80
ZS3:ov2281_write_reg:write reg=3700,val=28
ZS3:ov2281_write_reg:write reg=3701,val=10
ZS3:ov2281_write_reg:write reg=3702,val=3a
ZS3:ov2281_write_reg:write reg=3703,val=19
ZS3:ov2281_write_reg:write reg=3704,val=10
ZS3:ov2281_write_reg:write reg=3705,val=0
ZS3:ov2281_write_reg:write reg=3706,val=66
ZS3:ov2281_write_reg:write reg=3707,val=8
ZS3:ov2281_write_reg:write reg=3708,val=34
ZS3:ov2281_write_reg:write reg=3709,val=40
ZS3:ov2281_write_reg:write reg=370a,val=1
ZS3:ov2281_write_reg:write reg=370b,val=1b
ZS3:ov2281_write_reg:write reg=3714,val=24
ZS3:ov2281_write_reg:write reg=371a,val=3e
ZS3:ov2281_write_reg:write reg=3733,val=0
ZS3:ov2281_write_reg:write reg=3734,val=0
ZS3:ov2281_write_reg:write reg=373a,val=5
ZS3:ov2281_write_reg:write reg=373b,val=6
ZS3:ov2281_write_reg:write reg=373c,val=a
